Circuit: * D:\_Git\IO\LAB1\tranzystor\Tranzystor.asc

WARNING: Node NC_02 is floating.

WARNING: Less than two connections to node NC_01.  This node is used by D2.
WARNING: Less than two connections to node NC_02.  This node is used by D2.
Direct Newton iteration for .op point succeeded.
Semiconductor Device Operating Points:
                        --- Diodes ---
Name:      d2            d1
Model:      d      bzx84c6v2lt116
Id:      1.73e-28    -5.74e-03
Vd:      1.24e-16    -6.20e+00
Req:     7.21e+11     2.26e+00
CAP:     0.00e+00     2.88e-08

                        --- Bipolar Transistors ---
Name:       q1
Model:      npn
Ib:       5.33e-05
Ic:       5.33e-03
Vbe:      8.18e-01
Vbc:     -5.80e+00
Vce:      6.61e+00
BetaDC:   1.00e+02
Gm:       2.06e-01
Rpi:      4.85e+02
Rx:       0.00e+00
Ro:       0.00e+00
Cbe:      0.00e+00
Cbc:      0.00e+00
Cjs:      0.00e+00
BetaAC:   1.00e+02
Cbx:      0.00e+00
Ft:       0.00e+00



Date: Mon Nov 09 01:22:55 2020
Total elapsed time: 1.013 seconds.

tnom = 27
temp = 27
method = trap
totiter = 32
traniter = 0
tranpoints = 0
accept = 0
rejected = 0
matrix size = 7
fillins = 0
solver = Normal
Matrix Compiler1: 250 bytes object code size
Matrix Compiler2: 461 bytes object code size
