Circuit: * D:\_Git\IO\LAB1\tranzystor\Tranzystor.asc

Direct Newton iteration for .op point succeeded.
Semiconductor Device Operating Points:
                        --- Diodes ---
Name:        d1
Model: bzx84c6v2lt116
Id:      -6.41e-04
Vd:      -6.17e+00
Req:      2.07e+01
CAP:      3.15e-09

                        --- Bipolar Transistors ---
Name:       q1
Model:      npn
Ib:       5.19e-03
Ic:       5.19e-01
Vbe:      9.36e-01
Vbc:     -5.83e+00
Vce:      6.76e+00
BetaDC:   1.00e+02
Gm:       2.00e+01
Rpi:      4.99e+00
Rx:       0.00e+00
Ro:       0.00e+00
Cbe:      0.00e+00
Cbc:      0.00e+00
Cjs:      0.00e+00
BetaAC:   1.00e+02
Cbx:      0.00e+00
Ft:       0.00e+00



Date: Mon Nov 09 01:53:17 2020
Total elapsed time: 20.511 seconds.

tnom = 27
temp = 27
method = trap
totiter = 22
traniter = 0
tranpoints = 0
accept = 0
rejected = 0
matrix size = 5
fillins = 0
solver = Normal
Matrix Compiler1: 186 bytes object code size
Matrix Compiler2: 349 bytes object code size
