Circuit: * D:\_Git\IO\LAB1\tranzystor\Tranzystor_current_sweep.asc

Direct Newton iteration for .op point succeeded.
Semiconductor Device Operating Points:
                        --- Diodes ---
Name:        d1
Model: bzx84c6v2lt116
Id:      -5.70e-03
Vd:      -6.20e+00
Req:      2.28e+00
CAP:      2.86e-08

                        --- Bipolar Transistors ---
Name:       q1
Model:      npn
Ib:       9.90e-05
Ic:       9.90e-03
Vbe:      8.34e-01
Vbc:     -5.80e+00
Vce:      6.63e+00
BetaDC:   1.00e+02
Gm:       3.83e-01
Rpi:      2.61e+02
Rx:       0.00e+00
Ro:       0.00e+00
Cbe:      0.00e+00
Cbc:      0.00e+00
Cjs:      0.00e+00
BetaAC:   1.00e+02
Cbx:      0.00e+00
Ft:       0.00e+00



Date: Mon Nov 09 01:33:02 2020
Total elapsed time: 3.976 seconds.

tnom = 27
temp = 27
method = trap
totiter = 10
traniter = 0
tranpoints = 0
accept = 0
rejected = 0
matrix size = 5
fillins = 0
solver = Normal
Matrix Compiler1: 186 bytes object code size
Matrix Compiler2: 349 bytes object code size
