Circuit: * D:\_Git\IO\LAB3\modele\NPN.asc

Direct Newton iteration for .op point succeeded.
Semiconductor Device Operating Points:
                        --- Diodes ---
Name:    d:u1:p      d:u1:ln     d:u1:lp     d:u1:e      d:u1:c
Model:    u1:dx       u1:dx       u1:dx       u1:dx       u1:dx
Id:     -6.00e-11   -1.51e-11   -1.49e-11   -3.26e-11   -2.30e-11
Vd:     -6.00e+01   -1.51e+01   -1.49e+01   -3.26e+01   -2.30e+01
Req:     1.00e+12    1.00e+12    1.00e+12    1.00e+12    1.00e+12
CAP:     0.00e+00    0.00e+00    0.00e+00    0.00e+00    0.00e+00

                        --- Bipolar Transistors ---
Name:       q1
Model:    2n2222
Ib:       1.39e-04
Ic:       1.99e-02
Vbe:      7.40e-01
Vbc:      5.90e-01
Vce:      1.50e-01
BetaDC:   1.43e+02
Gm:       7.23e-01
Rpi:      2.41e+02
Rx:       1.00e+01
Ro:       2.74e+02
Cbe:      3.33e-10
Cbc:      3.82e-10
Cjs:      0.00e+00
BetaAC:   1.74e+02
Cbx:      0.00e+00
Ft:       1.61e+08

                        --- JFET Transistors ---
Name:    j:u1:2      j:u1:1
Model:    u1:jx       u1:jx
Id:     -2.57e-05   -2.58e-05
Vgs:     4.94e-01    4.93e-01
Vds:    -3.32e+01   -3.32e+01
Gm:      1.02e-04    1.02e-04
Gds:     0.00e+00    0.00e+00
Cgs:     0.00e+00    0.00e+00
Cgd:     0.00e+00    0.00e+00



Date: Sun Jan 17 17:51:13 2021
Total elapsed time: 1.083 seconds.

tnom = 27
temp = 27
method = trap
totiter = 19
traniter = 0
tranpoints = 0
accept = 0
rejected = 0
matrix size = 37
fillins = 36
solver = Normal
Matrix Compiler1: 3.57 KB object code size
Matrix Compiler2: 3.68 KB object code size
