Circuit: * D:\_Git\IO\LAB3\modele\NPN_0_5.asc

Direct Newton iteration for .op point succeeded.
Semiconductor Device Operating Points:
                        --- Diodes ---
Name:    d:u1:p      d:u1:ln     d:u1:lp     d:u1:e      d:u1:c
Model:    u1:dx       u1:dx       u1:dx       u1:dx       u1:dx
Id:     -6.00e-11   -1.51e-11   -1.50e-11   -2.97e-11   -2.59e-11
Vd:     -6.00e+01   -1.51e+01   -1.49e+01   -2.97e+01   -2.59e+01
Req:     1.00e+12    1.00e+12    1.00e+12    1.00e+12    1.00e+12
CAP:     0.00e+00    0.00e+00    0.00e+00    0.00e+00    0.00e+00

                        --- Bipolar Transistors ---
Name:       q1
Model:    2n2222
Ib:       5.05e-05
Ic:       1.19e-02
Vbe:      7.18e-01
Vbc:     -2.21e+01
Vce:      2.28e+01
BetaDC:   2.36e+02
Gm:       4.48e-01
Rpi:      5.12e+02
Rx:       1.00e+01
Ro:       1.02e+04
Cbe:      2.20e-10
Cbc:      2.59e-12
Cjs:      0.00e+00
BetaAC:   2.29e+02
Cbx:      0.00e+00
Ft:       3.20e+08

                        --- JFET Transistors ---
Name:    j:u1:2      j:u1:1
Model:    u1:jx       u1:jx
Id:     -2.61e-05   -2.62e-05
Vgs:     4.90e-01    4.90e-01
Vds:    -3.04e+01   -3.04e+01
Gm:      1.03e-04    1.03e-04
Gds:     0.00e+00    0.00e+00
Cgs:     0.00e+00    0.00e+00
Cgd:     0.00e+00    0.00e+00



Date: Mon Dec 21 23:03:40 2020
Total elapsed time: 0.975 seconds.

tnom = 27
temp = 27
method = trap
totiter = 19
traniter = 0
tranpoints = 0
accept = 0
rejected = 0
matrix size = 37
fillins = 36
solver = Normal
Matrix Compiler1: 3.57 KB object code size
Matrix Compiler2: 3.68 KB object code size
