Circuit: * D:\_Git\IO\LAB3\modele\PNP_50.asc

Direct Newton iteration for .op point succeeded.
Semiconductor Device Operating Points:
                        --- Diodes ---
Name:    d:u1:p      d:u1:ln     d:u1:lp     d:u1:e      d:u1:c
Model:    u1:dx       u1:dx       u1:dx       u1:dx       u1:dx
Id:     -6.00e-11   -1.49e-11   -1.51e-11   -5.00e-11   -5.61e-12
Vd:     -6.00e+01   -1.49e+01   -1.51e+01   -5.00e+01   -5.61e+00
Req:     1.00e+12    1.00e+12    1.00e+12    1.00e+12    1.00e+12
CAP:     0.00e+00    0.00e+00    0.00e+00    0.00e+00    0.00e+00

                        --- Bipolar Transistors ---
Name:       q1
Model:    2n2905a
Ib:      -7.48e-05
Ic:      -2.00e-02
Vbe:     -8.00e-01
Vbc:      2.22e+01
Vce:     -2.30e+01
BetaDC:   2.68e+02
Gm:       7.62e-01
Rpi:      3.48e+02
Rx:       1.00e+01
Ro:       6.89e+03
Cbe:      4.94e-10
Cbc:      2.34e-12
Cjs:      0.00e+00
BetaAC:   2.65e+02
Cbx:      0.00e+00
Ft:       2.44e+08

                        --- JFET Transistors ---
Name:    j:u1:2      j:u1:1
Model:    u1:jx       u1:jx
Id:     -2.31e-05   -2.35e-05
Vgs:     5.20e-01    5.17e-01
Vds:    -5.22e+01   -5.22e+01
Gm:      9.64e-05    9.72e-05
Gds:     0.00e+00    0.00e+00
Cgs:     0.00e+00    0.00e+00
Cgd:     0.00e+00    0.00e+00



Date: Mon Jan 18 08:19:43 2021
Total elapsed time: 2.879 seconds.

tnom = 27
temp = 27
method = trap
totiter = 39
traniter = 0
tranpoints = 0
accept = 0
rejected = 0
matrix size = 35
fillins = 43
solver = Normal
Matrix Compiler1: 4.22 KB object code size
Matrix Compiler2:     275 opcodes
