Circuit: * D:\_Git\IO\LAB2\modele\klucz_4.asc

Direct Newton iteration for .op point succeeded.
Semiconductor Device Operating Points:
                        --- Bipolar Transistors ---
Name:       q1
Model:    2n2905a
Ib:      -8.14e-04
Ic:      -9.96e-02
Vbe:     -8.56e-01
Vbc:     -6.67e-01
Vce:     -1.88e-01
BetaDC:   1.22e+02
Gm:       3.56e+00
Rpi:      5.37e+01
Rx:       1.00e+01
Ro:       2.33e+01
Cbe:      2.46e-09
Cbc:      5.18e-09
Cjs:      0.00e+00
BetaAC:   1.91e+02
Cbx:      0.00e+00
Ft:       7.42e+07



Date: Mon Dec 07 04:09:39 2020
Total elapsed time: 0.041 seconds.

tnom = 27
temp = 27
method = trap
totiter = 12
traniter = 0
tranpoints = 0
accept = 0
rejected = 0
matrix size = 9
fillins = 0
solver = Normal
Matrix Compiler1: 456 bytes object code size
Matrix Compiler2: 667 bytes object code size
