Circuit: * D:\_Git\IO\LAB2\modele\klucz_2.asc

Direct Newton iteration for .op point succeeded.
Semiconductor Device Operating Points:
                        --- Bipolar Transistors ---
Name:       q1
Model:    2n2222
Ib:       9.22e-04
Ic:       9.83e-02
Vbe:      8.11e-01
Vbc:      6.28e-01
Vce:      1.83e-01
BetaDC:   1.07e+02
Gm:       3.05e+00
Rpi:      3.89e+01
Rx:       1.00e+01
Ro:       4.31e+01
Cbe:      1.47e-09
Cbc:      2.99e-09
Cjs:      0.00e+00
BetaAC:   1.19e+02
Cbx:      0.00e+00
Ft:       1.09e+08



Date: Mon Dec 07 04:07:39 2020
Total elapsed time: 0.038 seconds.

tnom = 27
temp = 27
method = trap
totiter = 16
traniter = 0
tranpoints = 0
accept = 0
rejected = 0
matrix size = 9
fillins = 0
solver = Normal
Matrix Compiler1: 456 bytes object code size
Matrix Compiler2: 667 bytes object code size
