Circuit: * D:\_Git\IO\LAB2\modele\klucz_3.asc

Direct Newton iteration for .op point succeeded.
Semiconductor Device Operating Points:
                        --- Diodes ---
Name:      d1
Model:    1n750
Id:     -1.02e-02
Vd:     -4.66e+00
Req:     5.11e+00
CAP:     5.90e-11

                        --- Bipolar Transistors ---
Name:       q1
Model:    2n2222
Ib:       9.40e-04
Ic:       9.91e-02
Vbe:      8.11e-01
Vbc:      6.29e-01
Vce:      1.82e-01
BetaDC:   1.05e+02
Gm:       3.07e+00
Rpi:      3.85e+01
Rx:       1.00e+01
Ro:       4.14e+01
Cbe:      1.49e-09
Cbc:      3.12e-09
Cjs:      0.00e+00
BetaAC:   1.18e+02
Cbx:      0.00e+00
Ft:       1.06e+08



Date: Mon Dec 07 04:08:32 2020
Total elapsed time: 0.054 seconds.

tnom = 27
temp = 27
method = trap
totiter = 20
traniter = 0
tranpoints = 0
accept = 0
rejected = 0
matrix size = 11
fillins = 0
solver = Normal
Matrix Compiler1: 556 bytes object code size
Matrix Compiler2: 813 bytes object code size
