Circuit: * D:\_Git\IO\LAB2\modele\klucz_6.asc

Direct Newton iteration for .op point succeeded.
Semiconductor Device Operating Points:
                        --- Diodes ---
Name:      d1
Model:    1n750
Id:     -9.78e-02
Vd:     -4.79e+00
Req:     4.59e-01
CAP:     5.84e-11

                        --- Bipolar Transistors ---
Name:       q1
Model:    2n2905a
Ib:      -1.19e-03
Ic:      -9.78e-02
Vbe:     -8.60e-01
Vbc:     -6.92e-01
Vce:     -1.68e-01
BetaDC:   8.20e+01
Gm:       3.51e+00
Rpi:      5.38e+01
Rx:       1.00e+01
Ro:       1.11e+01
Cbe:      2.45e-09
Cbc:      1.09e-08
Cjs:      0.00e+00
BetaAC:   1.89e+02
Cbx:      0.00e+00
Ft:       4.17e+07



Date: Mon Dec 07 04:10:55 2020
Total elapsed time: 0.053 seconds.

tnom = 27
temp = 27
method = trap
totiter = 16
traniter = 0
tranpoints = 0
accept = 0
rejected = 0
matrix size = 11
fillins = 0
solver = Normal
Matrix Compiler1: 494 bytes object code size
Matrix Compiler2: 813 bytes object code size
