Circuit: * D:\_Git\IO\LAB2\modele\klucz_1.asc

Direct Newton iteration for .op point succeeded.
Semiconductor Device Operating Points:
                        --- Bipolar Transistors ---
Name:       q1
Model:    2n2222
Ib:       9.43e-04
Ic:       9.92e-02
Vbe:      8.11e-01
Vbc:      6.29e-01
Vce:      1.82e-01
BetaDC:   1.05e+02
Gm:       3.07e+00
Rpi:      3.85e+01
Rx:       1.00e+01
Ro:       4.11e+01
Cbe:      1.49e-09
Cbc:      3.15e-09
Cjs:      0.00e+00
BetaAC:   1.18e+02
Cbx:      0.00e+00
Ft:       1.05e+08



Date: Mon Dec 07 04:04:32 2020
Total elapsed time: 0.035 seconds.

tnom = 27
temp = 27
method = trap
totiter = 15
traniter = 0
tranpoints = 0
accept = 0
rejected = 0
matrix size = 10
fillins = 0
solver = Normal
Matrix Compiler1: 506 bytes object code size
Matrix Compiler2: 740 bytes object code size
