Circuit: * D:\_Git\IO\LAB2\modele\modul_10U_I.asc

Direct Newton iteration for .op point succeeded.
Semiconductor Device Operating Points:
                        --- Diodes ---
Name:    d:u1:p      d:u1:ln     d:u1:lp     d:u1:e      d:u1:c
Model:    u1:dx       u1:dx       u1:dx       u1:dx       u1:dx
Id:     -2.40e-11   -1.50e-11   -1.50e-11   -1.98e-11    1.35e-12
Vd:     -2.40e+01   -1.50e+01   -1.50e+01   -1.98e+01    1.88e-01
Req:     1.00e+12    1.00e+12    1.00e+12    1.00e+12    2.18e+10
CAP:     0.00e+00    0.00e+00    0.00e+00    0.00e+00    0.00e+00

                        --- JFET Transistors ---
Name:    j:u1:2      j:u1:1
Model:    u1:jx       u1:jx
Id:     -2.49e-05   -2.51e-05
Vgs:     5.02e-01    5.00e-01
Vds:    -2.12e+01   -2.12e+01
Gm:      1.00e-04    1.00e-04
Gds:     0.00e+00    0.00e+00
Cgs:     0.00e+00    0.00e+00
Cgd:     0.00e+00    0.00e+00



Date: Mon Dec 07 05:43:22 2020
Total elapsed time: 0.534 seconds.

tnom = 27
temp = 27
method = trap
totiter = 22
traniter = 0
tranpoints = 0
accept = 0
rejected = 0
matrix size = 31
fillins = 32
solver = Normal
Matrix Compiler1: 2.98 KB object code size
Matrix Compiler2: 3.08 KB object code size
