Circuit: * D:\_Git\IO\LAB2\modul_10.asc

Direct Newton iteration for .op point succeeded.
Semiconductor Device Operating Points:
                        --- Diodes ---
Name:    d:u1:p      d:u1:ln     d:u1:lp     d:u1:e      d:u1:c
Model:    u1:dx       u1:dx       u1:dx       u1:dx       u1:dx
Id:     -2.40e-11   -3.06e-11    5.57e-05   -9.82e-12   -9.79e-12
Vd:     -2.40e+01   -3.06e+01    6.46e-01   -9.82e+00   -9.78e+00
Req:     1.00e+12    1.00e+12    4.65e+02    1.00e+12    1.00e+12
CAP:     0.00e+00    0.00e+00    0.00e+00    0.00e+00    0.00e+00

                        --- JFET Transistors ---
Name:    j:u1:2      j:u1:1
Model:    u1:jx       u1:jx
Id:     -3.20e-11   -5.26e-05
Vgs:     5.26e+00    2.77e-01
Vds:    -1.17e+01   -1.12e+01
Gm:      0.00e+00    1.45e-04
Gds:     0.00e+00    0.00e+00
Cgs:     0.00e+00    0.00e+00
Cgd:     0.00e+00    0.00e+00



Date: Mon Nov 23 11:34:48 2020
Total elapsed time: 1.196 seconds.

tnom = 27
temp = 27
method = trap
totiter = 19
traniter = 0
tranpoints = 0
accept = 0
rejected = 0
matrix size = 31
fillins = 32
solver = Normal
Matrix Compiler1: 2.98 KB object code size
Matrix Compiler2: 3.08 KB object code size
