Circuit: * D:\_Git\IO\LAB1\Stabilizator\LM78xx.asc

Direct Newton iteration failed to find .op point.  (Use ".option noopiter" to skip.)
Starting Gmin stepping
Gmin = 10
Gmin = 1.07374
Gmin = 0.115292
Gmin = 0.0123794
Gmin = 0.00132923
Gmin = 0.000142725
Gmin = 1.5325e-005
vernier = 0.5
vernier = 0.25
vernier = 0.125
Gmin = 1.31395e-005
vernier = 0.166667
vernier = 0.222222
Gmin = 8.28481e-006
vernier = 0.296296
vernier = 0.395061
Gmin = 4.01148e-006
vernier = 0.526748
Gmin = 1.31017e-006
vernier = 0.702331
vernier = 0.936441
Gmin = 2.13989e-007
vernier = 1
Gmin = 2.35724e-008
Gmin = 2.53107e-009
Gmin = 2.71772e-010
Gmin = 2.91812e-011
Gmin = 3.13331e-012
Gmin = 3.36437e-013
Gmin = 0
Gmin stepping succeeded in finding the operating point.

Semiconductor Device Operating Points:
                        --- Diodes ---
Name:    d:u1:z1     d:u1:z2     d:u1:1
Model:  u1:d_5v6    u1:d_5v1     u1:d_d
Id:     -7.42e-05   -1.10e-04    1.81e-05
Vd:     -5.67e+00   -5.06e+00    7.09e-01
Req:     3.49e+02    2.35e+02    1.66e+03
CAP:     4.16e-13    4.49e-13    1.72e-12

                        --- Bipolar Transistors ---
Name:     q:u1:t9    q:u1:t10    q:u1:t15     q:u1:t4     q:u1:t8
Model:   u1:q_pnp    u1:q_pnp    u1:q_pnp    u1:q_npn    u1:q_npn
Ib:      -1.78e-05   -1.78e-05   -1.49e-05    2.20e-06    1.33e-06
Ic:      -1.43e-03   -1.43e-03   -1.20e-03    1.76e-04    1.06e-04
Vbe:     -8.40e-01   -8.40e-01   -8.34e-01    7.77e-01    7.62e-01
Vbc:      0.00e+00    4.67e+00    4.45e+00   -1.72e+00   -6.24e-01
Vce:     -8.40e-01   -5.51e+00   -5.29e+00    2.50e+00    1.39e+00
BetaDC:   8.00e+01    8.00e+01    8.00e+01    8.00e+01    8.00e+01
Gm:       4.76e-02    4.76e-02    3.99e-02    5.88e-03    3.54e-03
Rpi:      1.68e+03    1.68e+03    2.01e+03    1.36e+04    2.26e+04
Rx:       0.00e+00    0.00e+00    0.00e+00    0.00e+00    0.00e+00
Ro:       3.00e+13    1.07e+81    8.44e+77    2.72e+38    3.27e+22
Cbe:      8.30e-13    8.30e-13    7.52e-13    3.99e-13    3.72e-13
Cbc:      1.00e-13    5.21e-14    5.28e-14    6.74e-14    8.19e-14
Cjs:      0.00e+00    0.00e+00    0.00e+00    0.00e+00    0.00e+00
BetaAC:   8.00e+01    8.00e+01    8.00e+01    8.00e+01    8.00e+01
Cbx:      0.00e+00    0.00e+00    0.00e+00    0.00e+00    0.00e+00
Ft:       8.14e+09    8.58e+09    7.89e+09    2.01e+09    1.24e+09

Name:    q:u1:t11    q:u1:t12    q:u1:t13    q:u1:t16    q:u1:t14
Model:   u1:q_npn    u1:q_npn    u1:q_npn    u1:q_npn    u1:q_npn
Ib:      -5.40e-12   -1.10e-12    2.55e-07    7.44e-06    2.54e-06
Ic:       4.33e-11    4.97e-12    2.04e-05    5.95e-04    2.03e-04
Vbe:      3.16e-01    1.77e-01    7.12e-01    7.44e-01    7.81e-01
Vbc:     -6.18e+00   -1.31e+00   -2.96e+00   -5.51e+00   -3.67e+00
Vce:      6.49e+00    1.49e+00    3.67e+00    6.25e+00    4.45e+00
BetaDC:  -8.02e+00   -4.51e+00    8.00e+01    8.00e+01    8.00e+01
Gm:       1.24e-09    1.21e-10    6.80e-04    1.98e-02    6.77e-03
Rpi:      6.07e+10    3.97e+11    1.18e+05    4.03e+03    1.18e+04
Rx:       0.00e+00    0.00e+00    0.00e+00    0.00e+00    0.00e+00
Ro:       0.00e+00    3.10e+31    2.04e+56    1.53e+92    4.16e+66
Cbe:      2.40e-13    2.19e-12    3.33e-13    3.53e-12    4.09e-13
Cbc:      4.80e-14    7.16e-13    5.90e-14    4.97e-13    5.57e-14
Cjs:      0.00e+00    0.00e+00    0.00e+00    0.00e+00    0.00e+00
BetaAC:   7.51e+01    4.82e+01    8.00e+01    8.00e+01    8.00e+01
Cbx:      0.00e+00    0.00e+00    0.00e+00    0.00e+00    0.00e+00
Ft:       6.85e+02    6.66e+00    2.76e+08    7.84e+08    2.32e+09

Name:    q:u1:t18    q:u1:t17     q:u1:t2     q:u1:t3     q:u1:t1
Model:   u1:q_npn    u1:q_npn    u1:q_npn    u1:q_npn    u1:q_npn
Ib:       9.03e-07    7.49e-05   -9.93e-12    1.83e-05    4.92e-06
Ic:       7.22e-05    5.99e-03    8.96e-12    1.46e-03    3.94e-04
Vbe:      7.50e-01    7.45e-01   -9.78e-01    8.40e-01    8.01e-01
Vbc:     -1.63e+00   -6.25e+00   -8.95e+00   -6.29e+00   -6.33e+00
Vce:      2.38e+00    7.00e+00    7.98e+00    7.13e+00    7.13e+00
BetaDC:   8.00e+01    8.00e+01   -9.02e-01    8.00e+01    8.00e+01
Gm:       2.41e-03    2.00e-01    2.33e-28    4.87e-02    1.31e-02
Rpi:      3.32e+04    4.00e+02    1.00e+12    1.64e+03    6.10e+03
Rx:       0.00e+00    0.00e+00    0.00e+00    0.00e+00    0.00e+00
Ro:       1.12e+37    0.00e+00    0.00e+00    0.00e+00    0.00e+00
Cbe:      3.58e-13    3.53e-11    1.52e-13    8.42e-13    4.77e-13
Cbc:      6.83e-14    4.78e-12    4.30e-14    4.78e-14    4.77e-14
Cjs:      0.00e+00    0.00e+00    0.00e+00    0.00e+00    0.00e+00
BetaAC:   8.00e+01    8.00e+01    2.33e-16    8.00e+01    8.00e+01
Cbx:      0.00e+00    0.00e+00    0.00e+00    0.00e+00    0.00e+00
Ft:       8.98e+08    7.93e+08    8.17e-01    8.72e+09    3.98e+09

Name:     q:u1:t5     q:u1:t7     q:u1:t6
Model:   u1:q_npn    u1:q_npn    u1:q_npn
Ib:       1.85e-05    8.59e-06    1.00e-05
Ic:       1.48e-03    6.87e-04    8.03e-04
Vbe:      8.41e-01    8.18e-01    8.22e-01
Vbc:     -3.45e-03   -1.54e+00   -7.97e-01
Vce:      8.44e-01    2.36e+00    1.62e+00
BetaDC:   8.00e+01    8.00e+01    8.00e+01
Gm:       4.94e-02    2.29e-02    2.68e-02
Rpi:      1.62e+03    3.49e+03    2.99e+03
Rx:       0.00e+00    0.00e+00    0.00e+00
Ro:       3.37e+13    6.67e+35    1.03e+25
Cbe:      8.48e-13    5.78e-13    6.18e-13
Cbc:      9.98e-14    6.91e-14    7.88e-14
Cjs:      0.00e+00    0.00e+00    0.00e+00
BetaAC:   8.00e+01    8.00e+01    8.00e+01
Cbx:      0.00e+00    0.00e+00    0.00e+00
Ft:       8.29e+09    5.63e+09    6.11e+09



Date: Mon Nov 09 01:59:08 2020
Total elapsed time: 1.184 seconds.

tnom = 27
temp = 27
method = trap
totiter = 540
traniter = 0
tranpoints = 0
accept = 0
rejected = 0
matrix size = 29
fillins = 44
solver = Normal
Matrix Compiler1: 5.80 KB object code size
Matrix Compiler2: 3.66 KB object code size  0.5/0.4/[0.2]

