Circuit: * D:\_Git\IO\LAB4\modele\NPN_200.asc

Direct Newton iteration for .op point succeeded.
Semiconductor Device Operating Points:
                        --- Diodes ---
Name:    d:u1:p      d:u1:ln     d:u1:lp     d:u1:e      d:u1:c
Model:    u1:dx       u1:dx       u1:dx       u1:dx       u1:dx
Id:     -6.00e-11   -1.51e-11   -1.49e-11   -3.25e-11   -2.31e-11
Vd:     -6.00e+01   -1.51e+01   -1.49e+01   -3.25e+01   -2.31e+01
Req:     1.00e+12    1.00e+12    1.00e+12    1.00e+12    1.00e+12
CAP:     0.00e+00    0.00e+00    0.00e+00    0.00e+00    0.00e+00

                        --- Bipolar Transistors ---
Name:       q1
Model:    2n2222
Ib:       8.81e-05
Ic:       1.99e-02
Vbe:      7.34e-01
Vbc:     -1.92e+01
Vce:      2.00e+01
BetaDC:   2.26e+02
Gm:       7.31e-01
Rpi:      2.94e+02
Rx:       1.00e+01
Ro:       5.99e+03
Cbe:      3.34e-10
Cbc:      2.71e-12
Cjs:      0.00e+00
BetaAC:   2.15e+02
Cbx:      0.00e+00
Ft:       3.46e+08

                        --- JFET Transistors ---
Name:    j:u1:2      j:u1:1
Model:    u1:jx       u1:jx
Id:     -2.57e-05   -2.58e-05
Vgs:     4.94e-01    4.93e-01
Vds:    -3.32e+01   -3.32e+01
Gm:      1.02e-04    1.02e-04
Gds:     0.00e+00    0.00e+00
Cgs:     0.00e+00    0.00e+00
Cgd:     0.00e+00    0.00e+00



Date: Mon Jan 18 11:19:03 2021
Total elapsed time: 3.046 seconds.

tnom = 27
temp = 27
method = trap
totiter = 19
traniter = 0
tranpoints = 0
accept = 0
rejected = 0
matrix size = 35
fillins = 36
solver = Normal
Matrix Compiler1: 3.47 KB object code size
Matrix Compiler2: 3.54 KB object code size
