Circuit: * D:\_Git\IO\LAB4\modele\PNP.asc

Direct Newton iteration for .op point succeeded.
Semiconductor Device Operating Points:
                        --- Diodes ---
Name:    d:u1:p      d:u1:ln     d:u1:lp     d:u1:e      d:u1:c
Model:    u1:dx       u1:dx       u1:dx       u1:dx       u1:dx
Id:     -6.00e-11   -1.49e-11   -1.51e-11   -5.00e-11   -5.62e-12
Vd:     -6.00e+01   -1.49e+01   -1.51e+01   -5.00e+01   -5.62e+00
Req:     1.00e+12    1.00e+12    1.00e+12    1.00e+12    1.00e+12
CAP:     0.00e+00    0.00e+00    0.00e+00    0.00e+00    0.00e+00

                        --- Bipolar Transistors ---
Name:       q1
Model:    2n2905a
Ib:      -8.74e-05
Ic:      -2.00e-02
Vbe:     -8.04e-01
Vbc:      2.22e+00
Vce:     -3.03e+00
BetaDC:   2.28e+02
Gm:       7.58e-01
Rpi:      2.98e+02
Rx:       1.00e+01
Ro:       5.90e+03
Cbe:      4.94e-10
Cbc:      7.05e-12
Cjs:      0.00e+00
BetaAC:   2.26e+02
Cbx:      0.00e+00
Ft:       2.41e+08

                        --- JFET Transistors ---
Name:    j:u1:2      j:u1:1
Model:    u1:jx       u1:jx
Id:     -2.31e-05   -2.35e-05
Vgs:     5.20e-01    5.17e-01
Vds:    -5.22e+01   -5.22e+01
Gm:      9.64e-05    9.72e-05
Gds:     0.00e+00    0.00e+00
Cgs:     0.00e+00    0.00e+00
Cgd:     0.00e+00    0.00e+00



Date: Mon Jan 18 11:27:28 2021
Total elapsed time: 0.827 seconds.

tnom = 27
temp = 27
method = trap
totiter = 1484
traniter = 0
tranpoints = 0
accept = 0
rejected = 0
matrix size = 35
fillins = 34
solver = Normal
Matrix Compiler1: 2.84 KB object code size
Matrix Compiler2: 3.46 KB object code size  0.4/0.4/[0.3]

