Circuit: * D:\_Git\IO\LAB4\modele\PNP_50.asc

Direct Newton iteration failed to find .op point.  (Use ".option noopiter" to skip.)
Starting Gmin stepping
Increasing initial diagonal Gmin to 100
Gmin = 100
vernier = 0.5
Gmin = 18.6414
vernier = 0.25
vernier = 0.125
vernier = 0.0625
vernier = 0.03125
vernier = 0.015625
Gmin = 20.809
vernier = 0.0078125
vernier = 0.00390625
vernier = 0.00195313
vernier = 0.000976563
Gmin = 20.7836
vernier = 0.000488281
Gmin = 0
Gmin stepping failed

Starting source stepping with srcstepmethod=0
Source Step = 3.0303%
Source Step = 33.3333%
Source Step = 63.6364%
Source Step = 93.9394%
Source stepping succeeded in finding the operating point.

Semiconductor Device Operating Points:
                        --- Diodes ---
Name:    d:u1:p      d:u1:ln     d:u1:lp     d:u1:e      d:u1:c
Model:    u1:dx       u1:dx       u1:dx       u1:dx       u1:dx
Id:     -6.00e-11   -1.49e-11   -1.51e-11   -4.90e-11   -6.61e-12
Vd:     -6.00e+01   -1.49e+01   -1.51e+01   -4.90e+01   -6.61e+00
Req:     1.00e+12    1.00e+12    1.00e+12    1.00e+12    1.00e+12
CAP:     0.00e+00    0.00e+00    0.00e+00    0.00e+00    0.00e+00

                        --- Bipolar Transistors ---
Name:       q1
Model:    2n2905a
Ib:      -7.52e-05
Ic:      -2.00e-02
Vbe:     -8.00e-01
Vbc:      2.12e+01
Vce:     -2.20e+01
BetaDC:   2.66e+02
Gm:       7.60e-01
Rpi:      3.47e+02
Rx:       1.00e+01
Ro:       6.86e+03
Cbe:      4.93e-10
Cbc:      2.40e-12
Cjs:      0.00e+00
BetaAC:   2.63e+02
Cbx:      0.00e+00
Ft:       2.44e+08

                        --- JFET Transistors ---
Name:    j:u1:2      j:u1:1
Model:    u1:jx       u1:jx
Id:     -2.32e-05   -2.36e-05
Vgs:     5.19e-01    5.15e-01
Vds:    -5.12e+01   -5.12e+01
Gm:      9.67e-05    9.74e-05
Gds:     0.00e+00    0.00e+00
Cgs:     0.00e+00    0.00e+00
Cgd:     0.00e+00    0.00e+00



Date: Mon Jan 18 11:33:10 2021
Total elapsed time: 1.279 seconds.

tnom = 27
temp = 27
method = trap
totiter = 1532
traniter = 0
tranpoints = 0
accept = 0
rejected = 0
matrix size = 34
fillins = 63
solver = Normal
Matrix Compiler1: 4.58 KB object code size
Matrix Compiler2: off  [0.3]/0.4/0.3

